#  HZ   S   RI   R     50.00 
! Rohde & Schwarz ZVA40 4Ports - Version 3.90 - 1145.1110k45 SN: 100121
! Date: 2020-07-01 13:18:37
! Measurement: S11 
! 
 7.000000000000000E9     3.090558946132660E-2  -6.284105777740479E-1  
 7.001000000000000E9     2.568742632865906E-2  -6.285896897315979E-1  
 7.002000000000000E9     2.375918626785278E-2  -6.300211548805237E-1  
 7.003000000000000E9     2.030672132968903E-2  -6.291317343711853E-1  
 7.004000000000000E9     1.854524016380310E-2  -6.290302276611328E-1  
 7.005000000000000E9     1.314069330692291E-2  -6.301571130752564E-1  
 7.006000000000000E9     1.260723173618317E-2  -6.296007037162781E-1  
 7.007000000000000E9     9.933248162269592E-3  -6.300982832908630E-1  
 7.008000000000000E9     4.925683140754700E-3  -6.312963366508484E-1  
 7.009000000000000E9     2.516508102416992E-3  -6.302222609519959E-1  
 7.010000000000000E9    -1.248463988304138E-3  -6.306565999984741E-1  
 7.011000000000000E9    -2.101957798004150E-3  -6.311233043670654E-1  
 7.012000000000000E9    -7.408037781715393E-3  -6.290817856788635E-1  
 7.013000000000000E9    -9.695574641227722E-3  -6.293680667877197E-1  
 7.014000000000000E9    -1.224096864461899E-2  -6.298756599426270E-1  
 7.015000000000000E9    -1.632777601480484E-2  -6.291880011558533E-1  
 7.016000000000000E9    -1.829580962657929E-2  -6.308971643447876E-1  
 7.017000000000000E9    -2.145592123270035E-2  -6.307853460311890E-1  
 7.018000000000000E9    -2.588993310928345E-2  -6.316127777099609E-1  
 7.019000000000000E9    -2.841472625732422E-2  -6.304840445518494E-1  
 7.020000000000000E9    -3.115699440240860E-2  -6.306493282318115E-1  
 7.021000000000000E9    -3.521826490759850E-2  -6.315134763717651E-1  
 7.022000000000000E9    -3.737387061119080E-2  -6.307890415191650E-1  
 7.023000000000000E9    -4.060586541891098E-2  -6.307139992713928E-1  
 7.024000000000000E9    -4.372255504131317E-2  -6.295485496520996E-1  
 7.025000000000000E9    -4.708098247647286E-2  -6.293203234672546E-1  
 7.026000000000000E9    -4.951694980263710E-2  -6.293308734893799E-1  
 7.027000000000000E9    -5.353417620062828E-2  -6.303707957267761E-1  
 7.028000000000000E9    -5.737666040658951E-2  -6.305068731307983E-1  
 7.029000000000000E9    -5.904665589332581E-2  -6.294972896575928E-1  
 7.030000000000000E9    -6.340641528367996E-2  -6.288452744483948E-1  
 7.031000000000000E9    -6.543458253145218E-2  -6.295526027679443E-1  
 7.032000000000000E9    -6.945293396711350E-2  -6.290808320045471E-1  
 7.033000000000000E9    -7.261256873607636E-2  -6.284358501434326E-1  
 7.034000000000000E9    -7.561706006526947E-2  -6.272964477539063E-1  
 7.035000000000000E9    -7.743072509765625E-2  -6.279648542404175E-1  
 7.036000000000000E9    -8.011868596076965E-2  -6.255138516426086E-1  
 7.037000000000000E9    -8.546900749206543E-2  -6.269507408142090E-1  
 7.038000000000000E9    -8.729829639196396E-2  -6.266708970069885E-1  
 7.039000000000000E9    -8.933122456073761E-2  -6.281311511993408E-1  
 7.040000000000000E9    -9.313762187957764E-2  -6.256892681121826E-1  
 7.041000000000000E9    -9.597125649452210E-2  -6.258177161216736E-1  
 7.042000000000000E9    -9.877468645572662E-2  -6.244285106658936E-1  
 7.043000000000000E9    -1.016048863530159E-1  -6.241216659545898E-1  
 7.044000000000000E9    -1.054917573928833E-1  -6.238628625869751E-1  
 7.045000000000000E9    -1.081135571002960E-1  -6.232044100761414E-1  
 7.046000000000000E9    -1.115123480558395E-1  -6.229216456413269E-1  
 7.047000000000000E9    -1.135920360684395E-1  -6.212986707687378E-1  
 7.048000000000000E9    -1.176402121782303E-1  -6.207365393638611E-1  
 7.049000000000000E9    -1.197628602385521E-1  -6.214538812637329E-1  
 7.050000000000000E9    -1.207162216305733E-1  -6.204756498336792E-1  
 7.051000000000000E9    -1.273662894964218E-1  -6.202775239944458E-1  
 7.052000000000000E9    -1.286239773035049E-1  -6.200499534606934E-1  
 7.053000000000000E9    -1.323454380035400E-1  -6.191595792770386E-1  
 7.054000000000000E9    -1.345250755548477E-1  -6.178878545761108E-1  
 7.055000000000000E9    -1.368810236454010E-1  -6.181384325027466E-1  
 7.056000000000000E9    -1.401123702526093E-1  -6.167302727699280E-1  
 7.057000000000000E9    -1.435661464929581E-1  -6.158052682876587E-1  
 7.058000000000000E9    -1.452575027942658E-1  -6.150792241096497E-1  
 7.059000000000000E9    -1.482728868722916E-1  -6.157561540603638E-1  
 7.060000000000000E9    -1.515628546476364E-1  -6.137566566467285E-1  
 7.061000000000000E9    -1.545947194099426E-1  -6.143055558204651E-1  
 7.062000000000000E9    -1.577248424291611E-1  -6.138054728507996E-1  
 7.063000000000000E9    -1.602879464626312E-1  -6.121871471405029E-1  
 7.064000000000000E9    -1.647055000066757E-1  -6.124837398529053E-1  
 7.065000000000000E9    -1.656440347433090E-1  -6.111806035041809E-1  
 7.066000000000000E9    -1.692529320716858E-1  -6.102283596992493E-1  
 7.067000000000000E9    -1.720010936260223E-1  -6.085470318794251E-1  
 7.068000000000000E9    -1.742426156997681E-1  -6.082674860954285E-1  
 7.069000000000000E9    -1.780374646186829E-1  -6.095993518829346E-1  
 7.070000000000000E9    -1.801152229309082E-1  -6.058331727981567E-1  
 7.071000000000000E9    -1.824877411127091E-1  -6.070965528488159E-1  
 7.072000000000000E9    -1.879753023386002E-1  -6.046265959739685E-1  
 7.073000000000000E9    -1.903295516967773E-1  -6.050245761871338E-1  
 7.074000000000000E9    -1.925695538520813E-1  -6.024903059005737E-1  
 7.075000000000000E9    -1.965216547250748E-1  -6.015548110008240E-1  
 7.076000000000000E9    -1.987547427415848E-1  -6.017636060714722E-1  
 7.077000000000000E9    -2.025336176156998E-1  -6.001755595207214E-1  
 7.078000000000000E9    -2.056305408477783E-1  -5.993331670761108E-1  
 7.079000000000000E9    -2.066326737403870E-1  -5.975205898284912E-1  
 7.080000000000000E9    -2.084741890430450E-1  -5.968714356422424E-1  
 7.081000000000000E9    -2.125727534294128E-1  -5.964744687080383E-1  
 7.082000000000000E9    -2.139481306076050E-1  -5.957598090171814E-1  
 7.083000000000000E9    -2.177610993385315E-1  -5.967065095901489E-1  
 7.084000000000000E9    -2.202509045600891E-1  -5.931506156921387E-1  
 7.085000000000000E9    -2.225269377231598E-1  -5.916931629180908E-1  
 7.086000000000000E9    -2.271766662597656E-1  -5.932768583297730E-1  
 7.087000000000000E9    -2.305529415607452E-1  -5.910210609436035E-1  
 7.088000000000000E9    -2.331875115633011E-1  -5.906103849411011E-1  
 7.089000000000000E9    -2.350454032421112E-1  -5.892454981803894E-1  
 7.090000000000000E9    -2.381584197282791E-1  -5.870782732963562E-1  
 7.091000000000000E9    -2.392251938581467E-1  -5.846140980720520E-1  
 7.092000000000000E9    -2.436066567897797E-1  -5.840610265731812E-1  
 7.093000000000000E9    -2.470428347587585E-1  -5.848492980003357E-1  
 7.094000000000000E9    -2.498231381177902E-1  -5.809310674667358E-1  
 7.095000000000000E9    -2.520026564598084E-1  -5.801162719726563E-1  
 7.096000000000000E9    -2.535758614540100E-1  -5.807631611824036E-1  
 7.097000000000000E9    -2.580986917018890E-1  -5.786807537078857E-1  
 7.098000000000000E9    -2.604944109916687E-1  -5.772056579589844E-1  
 7.099000000000000E9    -2.632021605968475E-1  -5.760352015495300E-1  
 7.100000000000000E9    -2.664046883583069E-1  -5.744323134422302E-1  
 7.101000000000000E9    -2.673629224300385E-1  -5.734779238700867E-1  
 7.102000000000000E9    -2.711221873760223E-1  -5.723254084587097E-1  
 7.103000000000000E9    -2.754589617252350E-1  -5.705289840698242E-1  
 7.104000000000000E9    -2.769533991813660E-1  -5.705768465995789E-1  
 7.105000000000000E9    -2.792386114597321E-1  -5.690643191337585E-1  
 7.106000000000000E9    -2.810630798339844E-1  -5.681544542312622E-1  
 7.107000000000000E9    -2.864064276218414E-1  -5.647142529487610E-1  
 7.108000000000000E9    -2.871275842189789E-1  -5.640757083892822E-1  
 7.109000000000000E9    -2.908054590225220E-1  -5.616404414176941E-1  
 7.110000000000000E9    -2.940595149993897E-1  -5.583922863006592E-1  
 7.111000000000000E9    -2.973157763481140E-1  -5.599954724311829E-1  
 7.112000000000000E9    -2.999245822429657E-1  -5.579817891120911E-1  
 7.113000000000000E9    -3.012596964836121E-1  -5.573344826698303E-1  
 7.114000000000000E9    -3.039456009864807E-1  -5.546599626541138E-1  
 7.115000000000000E9    -3.067383766174316E-1  -5.524531602859497E-1  
 7.116000000000000E9    -3.083259463310242E-1  -5.520712733268738E-1  
 7.117000000000000E9    -3.123403787612915E-1  -5.487964749336243E-1  
 7.118000000000000E9    -3.149043321609497E-1  -5.481570363044739E-1  
 7.119000000000000E9    -3.160829544067383E-1  -5.461061000823975E-1  
 7.120000000000000E9    -3.194538354873657E-1  -5.465721487998962E-1  
 7.121000000000000E9    -3.237746953964233E-1  -5.432575941085815E-1  
 7.122000000000000E9    -3.244332373142242E-1  -5.424385666847229E-1  
 7.123000000000000E9    -3.278124034404755E-1  -5.396593809127808E-1  
 7.124000000000000E9    -3.307482302188873E-1  -5.377324819564819E-1  
 7.125000000000000E9    -3.326918482780457E-1  -5.369535088539124E-1  
 7.126000000000000E9    -3.344368636608124E-1  -5.351465344429016E-1  
 7.127000000000000E9    -3.387240171432495E-1  -5.349157452583313E-1  
 7.128000000000000E9    -3.412441611289978E-1  -5.323415994644165E-1  
 7.129000000000000E9    -3.429789841175079E-1  -5.310148000717163E-1  
 7.130000000000000E9    -3.449707627296448E-1  -5.299010276794434E-1  
 7.131000000000000E9    -3.482196629047394E-1  -5.264010429382324E-1  
 7.132000000000000E9    -3.508235216140747E-1  -5.243861079216003E-1  
 7.133000000000000E9    -3.532040417194367E-1  -5.248116850852966E-1  
 7.134000000000000E9    -3.561099171638489E-1  -5.220819711685181E-1  
 7.135000000000000E9    -3.568772077560425E-1  -5.188608169555664E-1  
 7.136000000000000E9    -3.617448210716248E-1  -5.181583166122437E-1  
 7.137000000000000E9    -3.629435300827026E-1  -5.149961709976196E-1  
 7.138000000000000E9    -3.652099668979645E-1  -5.124120116233826E-1  
 7.139000000000000E9    -3.675340712070465E-1  -5.115265250205994E-1  
 7.140000000000000E9    -3.709910511970520E-1  -5.084314346313477E-1  
 7.141000000000000E9    -3.716879487037659E-1  -5.086736679077148E-1  
 7.142000000000000E9    -3.737070262432098E-1  -5.049164295196533E-1  
 7.143000000000000E9    -3.778800964355469E-1  -5.027224421501160E-1  
 7.144000000000000E9    -3.807491660118103E-1  -5.014712810516357E-1  
 7.145000000000000E9    -3.811121881008148E-1  -5.006650686264038E-1  
 7.146000000000000E9    -3.860329985618591E-1  -4.978179335594177E-1  
 7.147000000000000E9    -3.862236142158508E-1  -4.961028397083283E-1  
 7.148000000000000E9    -3.907408416271210E-1  -4.947446286678314E-1  
 7.149000000000000E9    -3.923756182193756E-1  -4.938587546348572E-1  
 7.150000000000000E9    -3.946339488029480E-1  -4.891530275344849E-1  
 7.151000000000000E9    -3.966855406761169E-1  -4.877806901931763E-1  
 7.152000000000000E9    -3.994244337081909E-1  -4.865933060646057E-1  
 7.153000000000000E9    -4.011219739913940E-1  -4.840650260448456E-1  
 7.154000000000000E9    -4.064141213893890E-1  -4.809311330318451E-1  
 7.155000000000000E9    -4.050815999507904E-1  -4.775915741920471E-1  
 7.156000000000000E9    -4.089226722717285E-1  -4.756732285022736E-1  
 7.157000000000000E9    -4.115312397480011E-1  -4.735035300254822E-1  
 7.158000000000000E9    -4.119249880313873E-1  -4.710559844970703E-1  
 7.159000000000000E9    -4.151589870452881E-1  -4.693995118141174E-1  
 7.160000000000000E9    -4.161792099475861E-1  -4.676010608673096E-1  
 7.161000000000000E9    -4.190995991230011E-1  -4.644485116004944E-1  
 7.162000000000000E9    -4.216578900814056E-1  -4.621503353118897E-1  
 7.163000000000000E9    -4.241459071636200E-1  -4.609000384807587E-1  
 7.164000000000000E9    -4.256944358348846E-1  -4.585820138454437E-1  
 7.165000000000000E9    -4.271942973136902E-1  -4.571851491928101E-1  
 7.166000000000000E9    -4.291898310184479E-1  -4.544644355773926E-1  
 7.167000000000000E9    -4.320817887783051E-1  -4.520783424377441E-1  
 7.168000000000000E9    -4.344375729560852E-1  -4.502987861633301E-1  
 7.169000000000000E9    -4.366928935050964E-1  -4.484699666500092E-1  
 7.170000000000000E9    -4.381380081176758E-1  -4.459205865859985E-1  
 7.171000000000000E9    -4.410563111305237E-1  -4.440083801746368E-1  
 7.172000000000000E9    -4.425331354141235E-1  -4.406280517578125E-1  
 7.173000000000000E9    -4.453847706317902E-1  -4.377987384796143E-1  
 7.174000000000000E9    -4.481633603572846E-1  -4.358630478382111E-1  
 7.175000000000000E9    -4.493466317653656E-1  -4.331120252609253E-1  
 7.176000000000000E9    -4.504150450229645E-1  -4.319656491279602E-1  
 7.177000000000000E9    -4.543672502040863E-1  -4.297812879085541E-1  
 7.178000000000000E9    -4.559102654457092E-1  -4.244766831398010E-1  
 7.179000000000000E9    -4.568499922752380E-1  -4.227176010608673E-1  
 7.180000000000000E9    -4.590583443641663E-1  -4.206826090812683E-1  
 7.181000000000000E9    -4.611810147762299E-1  -4.200944900512695E-1  
 7.182000000000000E9    -4.640541970729828E-1  -4.159716367721558E-1  
 7.183000000000000E9    -4.640987515449524E-1  -4.125179052352905E-1  
 7.184000000000000E9    -4.674413800239563E-1  -4.113909602165222E-1  
 7.185000000000000E9    -4.687140882015228E-1  -4.089372158050537E-1  
 7.186000000000000E9    -4.712505340576172E-1  -4.067654907703400E-1  
 7.187000000000000E9    -4.726083576679230E-1  -4.027856588363648E-1  
 7.188000000000000E9    -4.768849015235901E-1  -4.012874662876129E-1  
 7.189000000000000E9    -4.769549667835236E-1  -3.986128568649292E-1  
 7.190000000000000E9    -4.802374243736267E-1  -3.958910107612610E-1  
 7.191000000000000E9    -4.791856110095978E-1  -3.942238390445709E-1  
 7.192000000000000E9    -4.829899072647095E-1  -3.908367455005646E-1  
 7.193000000000000E9    -4.832943975925446E-1  -3.885373473167419E-1  
 7.194000000000000E9    -4.844178855419159E-1  -3.864357173442841E-1  
 7.195000000000000E9    -4.889218807220459E-1  -3.836064934730530E-1  
 7.196000000000000E9    -4.889519214630127E-1  -3.817570805549622E-1  
 7.197000000000000E9    -4.905757308006287E-1  -3.770868182182312E-1  
 7.198000000000000E9    -4.937363564968109E-1  -3.764365613460541E-1  
 7.199000000000000E9    -4.964138269424439E-1  -3.729514181613922E-1  
 7.200000000000000E9    -4.966073334217072E-1  -3.702838420867920E-1  
 7.201000000000000E9    -4.977983832359314E-1  -3.674634099006653E-1  
 7.202000000000000E9    -5.001996159553528E-1  -3.642420768737793E-1  
 7.203000000000000E9    -5.015180706977844E-1  -3.605800867080689E-1  
 7.204000000000000E9    -5.040487051010132E-1  -3.604268133640289E-1  
 7.205000000000000E9    -5.046515464782715E-1  -3.577708005905151E-1  
 7.206000000000000E9    -5.090441703796387E-1  -3.541245162487030E-1  
 7.207000000000000E9    -5.069963335990906E-1  -3.518009185791016E-1  
 7.208000000000000E9    -5.123903751373291E-1  -3.486911058425903E-1  
 7.209000000000000E9    -5.112167000770569E-1  -3.454572558403015E-1  
 7.210000000000000E9    -5.147009491920471E-1  -3.423748910427094E-1  
 7.211000000000000E9    -5.136780142784119E-1  -3.400674760341644E-1  
 7.212000000000000E9    -5.155665278434753E-1  -3.370096087455750E-1  
 7.213000000000000E9    -5.177972316741943E-1  -3.352240324020386E-1  
 7.214000000000000E9    -5.208268761634827E-1  -3.308297395706177E-1  
 7.215000000000000E9    -5.203858613967896E-1  -3.292646408081055E-1  
 7.216000000000000E9    -5.232753157615662E-1  -3.252147138118744E-1  
 7.217000000000000E9    -5.248793363571167E-1  -3.222449719905853E-1  
 7.218000000000000E9    -5.256589055061340E-1  -3.208267390727997E-1  
 7.219000000000000E9    -5.266106128692627E-1  -3.171516656875610E-1  
 7.220000000000000E9    -5.301356911659241E-1  -3.153470456600189E-1  
 7.221000000000000E9    -5.298897624015808E-1  -3.112802207469940E-1  
 7.222000000000000E9    -5.309421420097351E-1  -3.064802885055542E-1  
 7.223000000000000E9    -5.311629772186279E-1  -3.052722215652466E-1  
 7.224000000000000E9    -5.323370099067688E-1  -3.023942112922669E-1  
 7.225000000000000E9    -5.344482660293579E-1  -3.000789284706116E-1  
 7.226000000000000E9    -5.349435806274414E-1  -2.971457839012146E-1  
 7.227000000000000E9    -5.365734100341797E-1  -2.932229936122894E-1  
 7.228000000000000E9    -5.386126637458801E-1  -2.906155884265900E-1  
 7.229000000000000E9    -5.387448072433472E-1  -2.887793779373169E-1  
 7.230000000000000E9    -5.393430590629578E-1  -2.844826579093933E-1  
 7.231000000000000E9    -5.409490466117859E-1  -2.814156711101532E-1  
 7.232000000000000E9    -5.440418720245361E-1  -2.782428264617920E-1  
 7.233000000000000E9    -5.452378392219544E-1  -2.757810354232788E-1  
 7.234000000000000E9    -5.449041724205017E-1  -2.722553014755249E-1  
 7.235000000000000E9    -5.465534925460815E-1  -2.683443427085877E-1  
 7.236000000000000E9    -5.463805794715881E-1  -2.670557498931885E-1  
 7.237000000000000E9    -5.488256216049194E-1  -2.648617625236511E-1  
 7.238000000000000E9    -5.497127771377564E-1  -2.590199112892151E-1  
 7.239000000000000E9    -5.501662492752075E-1  -2.577196657657623E-1  
 7.240000000000000E9    -5.511204600334168E-1  -2.544423937797546E-1  
 7.241000000000000E9    -5.547150969505310E-1  -2.509130239486694E-1  
 7.242000000000000E9    -5.526489019393921E-1  -2.466721832752228E-1  
 7.243000000000000E9    -5.552788376808167E-1  -2.456426918506622E-1  
 7.244000000000000E9    -5.561759471893311E-1  -2.423418313264847E-1  
 7.245000000000000E9    -5.557200312614441E-1  -2.369780540466309E-1  
 7.246000000000000E9    -5.572602152824402E-1  -2.357042133808136E-1  
 7.247000000000000E9    -5.587567687034607E-1  -2.324940562248230E-1  
 7.248000000000000E9    -5.602059960365295E-1  -2.293662130832672E-1  
 7.249000000000000E9    -5.614554286003113E-1  -2.263228893280029E-1  
 7.250000000000000E9    -5.601398944854736E-1  -2.230979502201080E-1  
 7.251000000000000E9    -5.608818531036377E-1  -2.196282595396042E-1  
 7.252000000000000E9    -5.611864924430847E-1  -2.166582643985748E-1  
 7.253000000000000E9    -5.628706216812134E-1  -2.136520147323608E-1  
 7.254000000000000E9    -5.643560290336609E-1  -2.112789452075958E-1  
 7.255000000000000E9    -5.646947622299194E-1  -2.080167233943939E-1  
 7.256000000000000E9    -5.643274784088135E-1  -2.021647989749908E-1  
 7.257000000000000E9    -5.652245283126831E-1  -2.014507651329041E-1  
 7.258000000000000E9    -5.664315223693848E-1  -1.970067024230957E-1  
 7.259000000000000E9    -5.676754117012024E-1  -1.943965405225754E-1  
 7.260000000000000E9    -5.675964951515198E-1  -1.908976286649704E-1  
 7.261000000000000E9    -5.673000216484070E-1  -1.875620633363724E-1  
 7.262000000000000E9    -5.683002471923828E-1  -1.842767447233200E-1  
 7.263000000000000E9    -5.696842670440674E-1  -1.824830025434494E-1  
 7.264000000000000E9    -5.701183080673218E-1  -1.803809702396393E-1  
 7.265000000000000E9    -5.702019929885864E-1  -1.769265383481979E-1  
 7.266000000000000E9    -5.697323679924011E-1  -1.729381680488586E-1  
 7.267000000000000E9    -5.722534656524658E-1  -1.688730269670487E-1  
 7.268000000000000E9    -5.720815658569336E-1  -1.646591722965241E-1  
 7.269000000000000E9    -5.727741718292236E-1  -1.627115756273270E-1  
 7.270000000000000E9    -5.731912255287170E-1  -1.584452688694000E-1  
 7.271000000000000E9    -5.740938782691956E-1  -1.576322317123413E-1  
 7.272000000000000E9    -5.747305750846863E-1  -1.528316736221314E-1  
 7.273000000000000E9    -5.759868025779724E-1  -1.497440338134766E-1  
 7.274000000000000E9    -5.746977925300598E-1  -1.472784429788590E-1  
 7.275000000000000E9    -5.759307146072388E-1  -1.421674638986588E-1  
 7.276000000000000E9    -5.773652791976929E-1  -1.390799880027771E-1  
 7.277000000000000E9    -5.792244672775269E-1  -1.359480619430542E-1  
 7.278000000000000E9    -5.773512125015259E-1  -1.325404793024063E-1  
